LTspice 24.0.12 for Windows
Circuit: * D:\KiCAD 6.0\KiCad6.0 PROJECTS\electrolysisMachine\circuit-modelling\precision-current-pump-calc\precision-current-pump.asc
Start Time: Sun Oct 27 21:29:27 2024
Warning: Multiple definitions of model "2scr375p" Type: BJT
Warning: Multiple definitions of model "bc857b" Type: BJT
Warning: Multiple definitions of model "bc847c" Type: BJT
Warning: Multiple definitions of model "bc847b" Type: BJT
solver = Normal
Maximum thread count: 8



Direct Newton iteration failed to find .op point.  (Use ".option noopiter" to skip.)
Starting Gmin stepping
Gmin = 10
Gmin = 1.07374
Gmin = 0.115292
Gmin = 0.0123794
Gmin = 0.00132923
Gmin = 0.000142725
Gmin = 1.5325e-05
Gmin = 1.6455e-06
Gmin = 1.76685e-07
Gmin = 1.89714e-08
Gmin = 2.03704e-09
Gmin = 2.18725e-10
Gmin = 2.34854e-11
Gmin = 2.52173e-12
Gmin = 2.70769e-13
Gmin = 0
Gmin stepping succeeded in finding the operating point.

Semiconductor Device Operating Points:
                        --- Diodes ---
Name:    d:u1:1      d:u1:2        d3          d4          d5
Model:    u1:x        u1:x       1n5819      1n5819      1n5819
Id:     -2.70e-11   -4.44e-15    2.51e-02    2.51e-02    2.51e-02
Vd:     -2.70e+01   -4.43e-03    2.38e-01    2.38e-01    2.38e-01
Req:     1.00e-12    1.00e-12    1.41e+00    1.41e+00    1.41e+00
CAP:     0.00e+00    0.00e+00    1.21e-10    1.21e-10    1.21e-10

Name:      d6          d1          d2          d7          d8
Model:   1n5819      1n5819      1n5819      1n5819      1n5819
Id:      2.51e-02    2.51e-02    2.51e-02    2.51e-02    2.51e-02
Vd:      2.38e-01    2.38e-01    2.38e-01    2.38e-01    2.38e-01
Req:     1.41e+00    1.41e+00    1.41e+00    1.41e+00    1.41e+00
CAP:     1.21e-10    1.21e-10    1.21e-10    1.21e-10    1.21e-10

Name:    d:u2:1      d:u2:2      d:u3:1      d:u3:2
Model:    u2:x        u2:x        u3:x        u3:x
Id:     -2.70e-11   -2.18e-15   -2.70e-11   -4.47e-15
Vd:     -2.70e+01   -2.18e-03   -2.70e+01   -4.47e-03
Req:     1.00e-12    1.00e-12    1.00e-12    1.00e-12
CAP:     0.00e+00    0.00e+00    0.00e+00    0.00e+00

                        --- Bipolar Transistors ---
Name:       q1          q2
Model:      npn         npn
Ib:       5.88e-04    6.77e-05
Ic:       2.21e-03    6.77e-03
Vbe:      8.05e-01    8.24e-01
Vbc:      7.59e-01   -2.28e+01
Vce:      4.62e-02    2.36e+01
BetaDC:   3.75e+00    1.00e+02
Gm:       1.07e-01    2.62e-01
Rpi:      7.79e+02    3.82e+02
Rx:       0.00e+00    0.00e+00
Ro:       4.66e+01    0.00e+00
Cbe:      0.00e+00    0.00e+00
Cbc:      0.00e+00    0.00e+00
Cjs:      0.00e+00    0.00e+00
BetaAC:   8.33e+01    1.00e+02
Cbx:      0.00e+00    0.00e+00
Ft:       0.00e+00    0.00e+00











































































































































































































































































































tnom = 27
temp = 27
method = modified trap
Total elapsed time: 2.515 seconds.

